Index   time[s]   T[K]   rho[g/cm^3]
0 1.000000000000E-4 1.0019E8 8900.1393
1 1.318256738556E-4 1.0022E8 8888.3971
2 1.737800828749E-4 1.0024E8 8876.2123
3 2.290867652768E-4 1.0027E8 8864.0442
4 3.019951720402E-4 1.0029E8 8851.8929
5 3.981071705535E-4 1.0031E8 8839.7581
6 5.248074602498E-4 1.0034E8 8827.6401
7 6.918309709189E-4 1.0036E8 8815.5386
8 9.120108393559E-4 1.0039E8 8803.4537
9 0.001202264435 1.0041E8 8791.3854
10 0.001584893192 1.0043E8 8779.3336
11 0.002089296131 1.0046E8 8767.2984
12 0.002754228703 1.0048E8 8755.2796
13 0.003630780548 1.0051E8 8743.2773
14 0.004786300923 1.0053E8 8731.2915
15 0.006309573445 1.0055E8 8719.3221
16 0.008317637711 1.0058E8 8707.3691
17 0.010964781961 1.0060E8 8695.4325
18 0.014454397707 1.0063E8 8683.5123
19 0.019054607180 1.0065E8 8671.6084
20 0.025118864315 1.0067E8 8659.7208
21 0.033113112148 1.0070E8 8647.8496
22 0.043651583224 1.0072E8 8635.9946
23 0.057543993734 1.0075E8 8624.1558
24 0.075857757503 1.0077E8 8612.3333
25 0.100000000000 1.0079E8 8600.5270
26 0.131825673856 1.0082E8 8588.7368
27 0.173780082875 1.0084E8 8576.9629
28 0.229086765277 1.0087E8 8565.2051
29 0.301995172040 1.0089E8 8553.4633
30 0.398107170553 1.0091E8 8541.7377
31 0.524807460250 1.0094E8 8530.0282
32 0.691830970919 1.0096E8 8518.3347
33 0.912010839356 1.0099E8 8506.6572
34 1.202264434617 1.0123E8 8479.6205
35 1.584893192461 1.0177E8 8432.3374
36 2.089296130854 1.0231E8 8385.3180
37 2.754228703338 1.0286E8 8338.5608
38 3.630780547701 1.0341E8 8292.0643
39 4.786300923226 1.0396E8 8245.8270
40 6.309573444802 1.0452E8 8199.8476
41 8.317637711027 1.0507E8 8154.1245
42 10.964781961432 1.0563E8 8108.6565
43 14.454397707459 1.0620E8 8063.4419
44 19.054607179633 1.0677E8 8018.4795
45 25.118864315096 1.0819E8 7919.3367
46 33.113112148259 1.1111E8 7764.8354
47 43.651583224017 1.2762E8 6730.7279
48 57.543993733716 2.9863E8 289.7371
49 75.857757502919 2.4686E8 111.0439
50 100.000000000001 2.1421E8 55.2264
51 131.825673855642 1.8140E8 47.1319
52 173.780082874939 1.5294E8 40.1859
53 229.086765276779 1.2894E8 35.8767
54 301.995172040204 1.0942E8 33.7364
55 398.107170553501 9.2200E7 31.6389
56 524.807460249777 7.9485E7 29.7364
57 691.830970918943 7.5517E7 27.7287
58 912.010839355918 7.1281E7 25.6267
59 1202.264434617424 6.9215E7 24.5954
60 1584.893192461129 6.7879E7 23.9111
61 2089.296130854060 6.6755E7 23.3399
62 2754.228703338195 6.5801E7 22.8587
63 3630.780547701051 6.4565E7 22.2399
64 4786.300923226434 6.3352E7 21.6373
65 6309.573444802001 6.2160E7 21.0506
66 8317.637711026802 6.1012E7 20.4901
67 10964.781961431963 5.9874E7 19.9339
68 14454.397707459428 5.8578E7 19.2574
69 19054.607179632676 5.7311E7 18.6040
70 25118.864315096074 5.6070E7 17.9727
71 33113.112148259480 5.4857E7 17.3628
72 43651.583224017110 5.3670E7 16.7737
73 57543.993733716365 5.2508E7 16.2045
74 75857.757502919300 5.1372E7 15.6546
75 100000.000000001220 5.0260E7 15.1234
76 131825.673855642350 4.8989E7 14.6968
77 173780.082874939780 4.7695E7 14.3085
78 229086.765276780300 4.6435E7 13.9304
79 301995.172040205600 4.5208E7 13.5623
80 398107.170553502700 4.4013E7 13.2040
81 524807.460249779900 4.2850E7 12.8551
82 691830.970918946200 4.1718E7 12.5155
83 912010.839355922800 4.0616E7 12.1848
84 1202264.434617430200 3.9412E7 11.8878
85 1584893.192461136700 3.8074E7 11.6306
86 2089296.130854070400 3.6782E7 11.3789
87 2754228.703338208000 3.5534E7 11.1326
88 3630780.547701069600 3.4328E7 10.8917
89 4786300.923226459000 3.3164E7 10.6560
90 6309573.444802033000 3.2038E7 10.4254
91 8317637.711026845000 3.0951E7 10.1998
92 1.096478196143E7 2.9860E7 9.9743
93 1.445439770746E7 2.8442E7 9.7108
94 1.905460717963E7 2.7091E7 9.4542
95 2.511886431510E7 2.5805E7 9.2044
96 3.311311214826E7 2.4579E7 8.9612
97 4.365158322402E7 2.3412E7 8.7245
98 5.754399373372E7 2.2300E7 8.4939
99 7.585775750292E7 2.1241E7 8.2695
100 1.000000000000E8 2.0232E7 8.0510
