Index   time[s]   T[K]   rho[g/cm^3]
203
0 1e-20 1e8 8900.
0   1.00000e-08 1.00000e+08 9.00000e+03
1   1.14815e-08 1.00000e+08 9.00000e+03
2   1.31826e-08 1.00000e+08 9.00000e+03
3   1.51356e-08 1.00000e+08 9.00000e+03
4   1.73780e-08 1.00000e+08 9.00000e+03
5   1.99526e-08 1.00000e+08 9.00000e+03
6   2.29087e-08 1.00000e+08 9.00000e+03
7   2.63027e-08 1.00000e+08 9.00000e+03
8   3.01995e-08 1.00000e+08 9.00000e+03
9   3.46737e-08 1.00000e+08 9.00000e+03
10  3.98107e-08 1.00000e+08 9.00000e+03
11  4.57088e-08 1.00000e+08 9.00000e+03
12  5.24807e-08 1.00000e+08 9.00000e+03
13  6.02560e-08 1.00000e+08 9.00000e+03
14  6.91831e-08 1.00000e+08 9.00000e+03
15  7.94328e-08 1.00000e+08 9.00000e+03
16  9.12011e-08 1.00000e+08 9.00000e+03
17  1.04713e-07 1.00000e+08 9.00000e+03
18  1.20226e-07 1.00000e+08 9.00000e+03
19  1.38038e-07 1.00000e+08 9.00000e+03
20  1.58489e-07 1.00000e+08 9.00000e+03
21  1.81970e-07 1.00000e+08 9.00000e+03
22  2.08930e-07 1.00000e+08 9.00000e+03
23  2.39883e-07 1.00000e+08 9.00000e+03
24  2.75423e-07 1.00000e+08 9.00000e+03
25  3.16228e-07 1.00000e+08 9.00000e+03
26  3.63078e-07 1.00000e+08 9.00000e+03
27  4.16869e-07 1.00000e+08 9.00000e+03
28  4.78630e-07 1.00000e+08 9.00000e+03
29  5.49541e-07 1.00000e+08 9.00000e+03
30  6.30957e-07 1.00000e+08 9.00000e+03
31  7.24436e-07 1.00000e+08 9.00000e+03
32  8.31764e-07 1.00000e+08 9.00000e+03
33  9.54993e-07 1.00000e+08 9.00000e+03
34  1.09648e-06 1.00000e+08 9.00000e+03
35  1.25893e-06 1.00000e+08 9.00000e+03
36  1.44544e-06 1.00000e+08 9.00000e+03
37  1.65959e-06 1.00000e+08 9.00000e+03
38  1.90546e-06 1.00000e+08 9.00000e+03
39  2.18776e-06 1.00000e+08 9.00000e+03
40  2.51189e-06 1.00000e+08 9.00000e+03
41  2.88403e-06 1.00000e+08 9.00000e+03
42  3.31131e-06 1.00000e+08 9.00000e+03
43  3.80189e-06 1.00000e+08 9.00000e+03
44  4.36516e-06 1.00000e+08 9.00000e+03
45  5.01187e-06 1.00000e+08 9.00000e+03
46  5.75440e-06 1.00000e+08 9.00000e+03
47  6.60693e-06 1.00000e+08 9.00000e+03
48  7.58578e-06 1.00000e+08 9.00000e+03
49  8.70964e-06 1.00000e+08 9.00000e+03
50  1.00000e-05 1.00000e+08 9.00000e+03
51  1.14815e-05 1.00009e+08 8.99529e+03
52  1.31826e-05 1.00021e+08 8.98913e+03
53  1.51356e-05 1.00033e+08 8.98296e+03
54  1.73780e-05 1.00045e+08 8.97680e+03
55  1.99526e-05 1.00057e+08 8.97065e+03
56  2.29087e-05 1.00069e+08 8.96450e+03
57  2.63027e-05 1.00081e+08 8.95835e+03
58  3.01995e-05 1.00093e+08 8.95221e+03
59  3.46737e-05 1.00105e+08 8.94607e+03
60  3.98107e-05 1.00117e+08 8.93994e+03
61  4.57088e-05 1.00129e+08 8.93381e+03
62  5.24807e-05 1.00141e+08 8.92768e+03
63  6.02560e-05 1.00153e+08 8.92156e+03
64  6.91831e-05 1.00164e+08 8.91544e+03
65  7.94328e-05 1.00176e+08 8.90933e+03
66  9.12011e-05 1.00188e+08 8.90322e+03
67  1.04713e-04 1.00200e+08 8.89712e+03
68  1.20226e-04 1.00212e+08 8.89101e+03
69  1.38038e-04 1.00224e+08 8.88492e+03
70  1.58489e-04 1.00236e+08 8.87883e+03
71  1.81970e-04 1.00248e+08 8.87274e+03
72  2.08930e-04 1.00260e+08 8.86665e+03
73  2.39883e-04 1.00272e+08 8.86058e+03
74  2.75423e-04 1.00284e+08 8.85450e+03
75  3.16228e-04 1.00296e+08 8.84843e+03
76  3.63078e-04 1.00308e+08 8.84236e+03
77  4.16869e-04 1.00320e+08 8.83630e+03
78  4.78630e-04 1.00332e+08 8.83024e+03
79  5.49541e-04 1.00344e+08 8.82419e+03
80  6.30957e-04 1.00356e+08 8.81813e+03
81  7.24436e-04 1.00368e+08 8.81209e+03
82  8.31764e-04 1.00380e+08 8.80605e+03
83  9.54993e-04 1.00392e+08 8.80001e+03
84  1.09648e-03 1.00404e+08 8.79397e+03
85  1.25893e-03 1.00416e+08 8.78794e+03
86  1.44544e-03 1.00428e+08 8.78192e+03
87  1.65959e-03 1.00440e+08 8.77590e+03
88  1.90546e-03 1.00452e+08 8.76988e+03
89  2.18776e-03 1.00464e+08 8.76387e+03
90  2.51189e-03 1.00476e+08 8.75786e+03
91  2.88403e-03 1.00488e+08 8.75185e+03
92  3.31131e-03 1.00500e+08 8.74585e+03
93  3.80189e-03 1.00512e+08 8.73986e+03
94  4.36516e-03 1.00524e+08 8.73386e+03
95  5.01187e-03 1.00536e+08 8.72787e+03
96  5.75440e-03 1.00548e+08 8.72189e+03
97  6.60693e-03 1.00560e+08 8.71591e+03
98  7.58578e-03 1.00572e+08 8.70993e+03
99  8.70964e-03 1.00584e+08 8.70396e+03
100 1.00000e-02 1.00596e+08 8.69799e+03
101 1.14815e-02 1.00608e+08 8.69203e+03
102 1.31826e-02 1.00620e+08 8.68607e+03
103 1.51356e-02 1.00632e+08 8.68011e+03
104 1.73780e-02 1.00644e+08 8.67416e+03
105 1.99526e-02 1.00656e+08 8.66821e+03
106 2.29087e-02 1.00668e+08 8.66227e+03
107 2.63027e-02 1.00680e+08 8.65633e+03
108 3.01995e-02 1.00692e+08 8.65040e+03
109 3.46737e-02 1.00704e+08 8.64447e+03
110 3.98107e-02 1.00716e+08 8.63854e+03
111 4.57088e-02 1.00728e+08 8.63261e+03
112 5.24807e-02 1.00740e+08 8.62670e+03
113 6.02560e-02 1.00752e+08 8.62078e+03
114 6.91831e-02 1.00764e+08 8.61487e+03
115 7.94328e-02 1.00776e+08 8.60896e+03
116 9.12011e-02 1.00788e+08 8.60306e+03
117 1.04713e-01 1.00800e+08 8.59716e+03
118 1.20226e-01 1.00812e+08 8.59127e+03
119 1.38038e-01 1.00824e+08 8.58538e+03
120 1.58489e-01 1.00836e+08 8.57949e+03
121 1.81970e-01 1.00849e+08 8.57361e+03
122 2.08930e-01 1.00861e+08 8.56773e+03
123 2.39883e-01 1.00873e+08 8.56185e+03
124 2.75423e-01 1.00885e+08 8.55598e+03
125 3.16228e-01 1.00897e+08 8.55012e+03
126 3.63078e-01 1.00909e+08 8.54425e+03
127 4.16869e-01 1.00921e+08 8.53839e+03
128 4.78630e-01 1.00933e+08 8.53254e+03
129 5.49541e-01 1.00945e+08 8.52669e+03
130 6.30957e-01 1.00957e+08 8.52084e+03
131 7.24436e-01 1.00969e+08 8.51500e+03
132 8.31764e-01 1.00981e+08 8.50916e+03
133 9.54993e-01 1.00993e+08 8.50333e+03
134 1.09648e+00 1.01115e+08 8.48980e+03
135 1.25893e+00 1.01385e+08 8.46610e+03
136 1.44544e+00 1.01655e+08 8.44246e+03
137 1.65959e+00 1.01926e+08 8.41889e+03
138 1.90546e+00 1.02198e+08 8.39539e+03
139 2.18776e+00 1.02470e+08 8.37195e+03
140 2.51189e+00 1.02743e+08 8.34857e+03
141 2.88403e+00 1.03017e+08 8.32527e+03
142 3.31131e+00 1.03291e+08 8.30202e+03
143 3.80189e+00 1.03567e+08 8.27884e+03
144 4.36516e+00 1.03843e+08 8.25573e+03
145 5.01187e+00 1.04119e+08 8.23268e+03
146 5.75440e+00 1.04397e+08 8.20970e+03
147 6.60693e+00 1.04675e+08 8.18677e+03
148 7.58578e+00 1.04954e+08 8.16392e+03
149 8.70964e+00 1.05234e+08 8.14112e+03
150 1.00000e+01 1.05514e+08 8.11839e+03
151 1.14815e+01 1.05795e+08 8.09573e+03
152 1.31826e+01 1.06077e+08 8.07313e+03
153 1.51356e+01 1.06360e+08 8.05059e+03
154 1.73780e+01 1.06643e+08 8.02811e+03
155 1.99526e+01 1.06928e+08 8.00570e+03
156 2.29087e+01 1.07754e+08 7.94872e+03
157 2.63027e+01 1.08774e+08 7.88044e+03
158 3.01995e+01 1.09804e+08 7.81275e+03
159 3.46737e+01 1.13790e+08 7.68182e+03
160 3.98107e+01 1.18645e+08 7.53848e+03
161 4.57088e+01 1.32240e+08 6.41218e+03
162 5.24807e+01 3.25724e+08 6.41401e+02
163 6.02560e+01 2.87849e+08 2.19642e+02
164 6.91831e+01 2.62127e+08 1.50530e+02
165 7.94328e+01 2.40280e+08 9.74798e+01
166 9.12011e+01 2.23657e+08 6.62982e+01
167 1.04713e+02 2.09277e+08 5.38653e+01
168 1.20226e+02 1.91865e+08 4.96667e+01
169 1.38038e+02 1.77362e+08 4.61502e+01
170 1.58489e+02 1.61511e+08 4.22854e+01
171 1.81970e+02 1.48790e+08 3.91658e+01
172 2.08930e+02 1.37553e+08 3.67563e+01
173 2.39883e+02 1.26551e+08 3.56258e+01
174 2.75423e+02 1.15860e+08 3.44667e+01
175 3.16228e+02 1.05902e+08 3.33251e+01
176 3.63078e+02 9.81324e+07 3.23870e+01
177 4.16869e+02 9.01232e+07 3.13699e+01
178 4.78630e+02 8.31861e+07 3.04423e+01
179 5.49541e+02 7.90773e+07 2.95285e+01
180 6.30957e+02 7.65300e+07 2.82375e+01
181 7.24436e+02 7.48195e+07 2.73793e+01
182 8.31764e+02 7.25615e+07 2.62574e+01
183 9.54993e+02 7.14318e+07 2.57008e+01
184 1.09648e+03 6.98186e+07 2.49063e+01
185 1.25893e+03 6.91476e+07 2.45605e+01
186 1.44544e+03 6.84811e+07 2.42186e+01
187 1.65959e+03 6.78190e+07 2.38803e+01
188 1.90546e+03 6.71903e+07 2.35606e+01
189 2.18776e+03 6.65717e+07 2.32472e+01
190 2.51189e+03 6.59588e+07 2.29380e+01
191 2.88403e+03 6.53516e+07 2.26330e+01
192 3.31131e+03 6.47499e+07 2.23320e+01
193 3.80189e+03 6.41538e+07 2.20350e+01
194 4.36516e+03 6.35632e+07 2.17419e+01
195 5.01187e+03 6.29780e+07 2.14528e+01
196 5.75440e+03 6.23982e+07 2.11675e+01
197 6.60693e+03 6.18237e+07 2.08859e+01
198 7.58578e+03 6.12546e+07 2.06082e+01
199 8.70964e+03 6.06906e+07 2.03341e+01
200 1.00000e+04 6.01319e+07 2.00637e+01
200 1e8  6e7  20.
