Index   time[s]   T[K]   rho[g/cm^3]
403
0   1e-21   1e8 8.8e3
0   1e-6    1e8 8.8e3
0   1.00000e-03 1.00395e+08 8.79830e+03
1   1.07152e-03 1.00399e+08 8.79656e+03
2   1.14815e-03 1.00405e+08 8.79355e+03
3   1.23027e-03 1.00411e+08 8.79053e+03
4   1.31826e-03 1.00417e+08 8.78752e+03
5   1.41254e-03 1.00423e+08 8.78451e+03
6   1.51356e-03 1.00429e+08 8.78149e+03
7   1.62181e-03 1.00435e+08 8.77848e+03
8   1.73780e-03 1.00441e+08 8.77547e+03
9   1.86209e-03 1.00447e+08 8.77246e+03
10  1.99526e-03 1.00453e+08 8.76945e+03
11  2.13796e-03 1.00459e+08 8.76645e+03
12  2.29087e-03 1.00465e+08 8.76344e+03
13  2.45471e-03 1.00471e+08 8.76044e+03
14  2.63027e-03 1.00477e+08 8.75743e+03
15  2.81838e-03 1.00483e+08 8.75443e+03
16  3.01995e-03 1.00489e+08 8.75143e+03
17  3.23594e-03 1.00495e+08 8.74843e+03
18  3.46737e-03 1.00501e+08 8.74543e+03
19  3.71535e-03 1.00507e+08 8.74243e+03
20  3.98107e-03 1.00513e+08 8.73943e+03
21  4.26580e-03 1.00519e+08 8.73643e+03
22  4.57088e-03 1.00525e+08 8.73344e+03
23  4.89779e-03 1.00531e+08 8.73044e+03
24  5.24807e-03 1.00537e+08 8.72745e+03
25  5.62341e-03 1.00543e+08 8.72446e+03
26  6.02560e-03 1.00549e+08 8.72147e+03
27  6.45654e-03 1.00555e+08 8.71848e+03
28  6.91831e-03 1.00561e+08 8.71549e+03
29  7.41310e-03 1.00567e+08 8.71250e+03
30  7.94328e-03 1.00573e+08 8.70951e+03
31  8.51138e-03 1.00579e+08 8.70652e+03
32  9.12011e-03 1.00585e+08 8.70354e+03
33  9.77237e-03 1.00591e+08 8.70055e+03
34  1.04713e-02 1.00597e+08 8.69757e+03
35  1.12202e-02 1.00603e+08 8.69459e+03
36  1.20226e-02 1.00609e+08 8.69161e+03
37  1.28825e-02 1.00615e+08 8.68863e+03
38  1.38038e-02 1.00621e+08 8.68565e+03
39  1.47911e-02 1.00627e+08 8.68267e+03
40  1.58489e-02 1.00633e+08 8.67969e+03
41  1.69824e-02 1.00639e+08 8.67672e+03
42  1.81970e-02 1.00645e+08 8.67374e+03
43  1.94984e-02 1.00651e+08 8.67077e+03
44  2.08930e-02 1.00657e+08 8.66779e+03
45  2.23872e-02 1.00663e+08 8.66482e+03
46  2.39883e-02 1.00669e+08 8.66185e+03
47  2.57040e-02 1.00675e+08 8.65888e+03
48  2.75423e-02 1.00681e+08 8.65591e+03
49  2.95121e-02 1.00687e+08 8.65294e+03
50  3.16228e-02 1.00693e+08 8.64998e+03
51  3.38844e-02 1.00699e+08 8.64701e+03
52  3.63078e-02 1.00705e+08 8.64405e+03
53  3.89045e-02 1.00711e+08 8.64108e+03
54  4.16869e-02 1.00717e+08 8.63812e+03
55  4.46684e-02 1.00723e+08 8.63516e+03
56  4.78630e-02 1.00729e+08 8.63220e+03
57  5.12861e-02 1.00735e+08 8.62924e+03
58  5.49541e-02 1.00741e+08 8.62628e+03
59  5.88844e-02 1.00747e+08 8.62332e+03
60  6.30957e-02 1.00753e+08 8.62036e+03
61  6.76083e-02 1.00759e+08 8.61741e+03
62  7.24436e-02 1.00765e+08 8.61445e+03
63  7.76247e-02 1.00771e+08 8.61150e+03
64  8.31764e-02 1.00777e+08 8.60855e+03
65  8.91251e-02 1.00783e+08 8.60559e+03
66  9.54993e-02 1.00789e+08 8.60264e+03
67  1.02329e-01 1.00795e+08 8.59969e+03
68  1.09648e-01 1.00801e+08 8.59674e+03
69  1.17490e-01 1.00807e+08 8.59380e+03
70  1.25893e-01 1.00813e+08 8.59085e+03
71  1.34896e-01 1.00819e+08 8.58790e+03
72  1.44544e-01 1.00825e+08 8.58496e+03
73  1.54882e-01 1.00831e+08 8.58202e+03
74  1.65959e-01 1.00837e+08 8.57907e+03
75  1.77828e-01 1.00843e+08 8.57613e+03
76  1.90546e-01 1.00849e+08 8.57319e+03
77  2.04174e-01 1.00855e+08 8.57025e+03
78  2.18776e-01 1.00861e+08 8.56731e+03
79  2.34423e-01 1.00867e+08 8.56437e+03
80  2.51189e-01 1.00873e+08 8.56144e+03
81  2.69153e-01 1.00879e+08 8.55850e+03
82  2.88403e-01 1.00885e+08 8.55557e+03
83  3.09030e-01 1.00892e+08 8.55263e+03
84  3.31131e-01 1.00898e+08 8.54970e+03
85  3.54813e-01 1.00904e+08 8.54677e+03
86  3.80189e-01 1.00910e+08 8.54384e+03
87  4.07380e-01 1.00916e+08 8.54091e+03
88  4.36516e-01 1.00922e+08 8.53798e+03
89  4.67735e-01 1.00928e+08 8.53505e+03
90  5.01187e-01 1.00934e+08 8.53213e+03
91  5.37032e-01 1.00940e+08 8.52920e+03
92  5.75440e-01 1.00946e+08 8.52628e+03
93  6.16595e-01 1.00952e+08 8.52335e+03
94  6.60693e-01 1.00958e+08 8.52043e+03
95  7.07946e-01 1.00964e+08 8.51751e+03
96  7.58578e-01 1.00970e+08 8.51459e+03
97  8.12831e-01 1.00976e+08 8.51167e+03
98  8.70964e-01 1.00982e+08 8.50875e+03
99  9.33254e-01 1.00988e+08 8.50583e+03
100 1.00000e+00 1.00994e+08 8.50292e+03
101 1.07152e+00 1.01000e+08 8.50000e+03
102 1.14815e+00 1.01134e+08 8.48813e+03
103 1.23027e+00 1.01269e+08 8.47627e+03
104 1.31826e+00 1.01404e+08 8.46443e+03
105 1.41254e+00 1.01539e+08 8.45260e+03
106 1.51356e+00 1.01674e+08 8.44080e+03
107 1.62181e+00 1.01810e+08 8.42900e+03
108 1.73780e+00 1.01945e+08 8.41723e+03
109 1.86209e+00 1.02081e+08 8.40547e+03
110 1.99526e+00 1.02217e+08 8.39373e+03
111 2.13796e+00 1.02353e+08 8.38200e+03
112 2.29087e+00 1.02489e+08 8.37029e+03
113 2.45471e+00 1.02626e+08 8.35860e+03
114 2.63027e+00 1.02762e+08 8.34692e+03
115 2.81838e+00 1.02899e+08 8.33526e+03
116 3.01995e+00 1.03036e+08 8.32362e+03
117 3.23594e+00 1.03173e+08 8.31199e+03
118 3.46737e+00 1.03311e+08 8.30038e+03
119 3.71535e+00 1.03448e+08 8.28879e+03
120 3.98107e+00 1.03586e+08 8.27721e+03
121 4.26580e+00 1.03724e+08 8.26564e+03
122 4.57088e+00 1.03862e+08 8.25410e+03
123 4.89779e+00 1.04000e+08 8.24257e+03
124 5.24807e+00 1.04139e+08 8.23105e+03
125 5.62341e+00 1.04278e+08 8.21955e+03
126 6.02560e+00 1.04416e+08 8.20807e+03
127 6.45654e+00 1.04556e+08 8.19661e+03
128 6.91831e+00 1.04695e+08 8.18516e+03
129 7.41310e+00 1.04834e+08 8.17372e+03
130 7.94328e+00 1.04974e+08 8.16230e+03
131 8.51138e+00 1.05114e+08 8.15090e+03
132 9.12011e+00 1.05253e+08 8.13951e+03
133 9.77237e+00 1.05394e+08 8.12814e+03
134 1.04713e+01 1.05534e+08 8.11679e+03
135 1.12202e+01 1.05674e+08 8.10545e+03
136 1.20226e+01 1.05815e+08 8.09413e+03
137 1.28825e+01 1.05956e+08 8.08282e+03
138 1.38038e+01 1.06097e+08 8.07153e+03
139 1.47911e+01 1.06238e+08 8.06025e+03
140 1.58489e+01 1.06380e+08 8.04899e+03
141 1.69824e+01 1.06522e+08 8.03775e+03
142 1.81970e+01 1.06663e+08 8.02652e+03
143 1.94984e+01 1.06805e+08 8.01531e+03
144 2.08930e+01 1.06948e+08 8.00411e+03
145 2.23872e+01 1.07319e+08 7.97821e+03
146 2.39883e+01 1.07826e+08 7.94387e+03
147 2.57040e+01 1.08335e+08 7.90968e+03
148 2.75423e+01 1.08847e+08 7.87564e+03
149 2.95121e+01 1.09361e+08 7.84174e+03
150 3.16228e+01 1.09877e+08 7.80799e+03
151 3.38844e+01 1.11767e+08 7.74418e+03
152 3.63078e+01 1.14126e+08 7.67159e+03
153 3.89045e+01 1.16536e+08 7.59968e+03
154 4.16869e+01 1.18996e+08 7.52845e+03
155 4.46684e+01 1.24220e+08 7.07445e+03
156 4.78630e+01 2.77368e+08 2.64625e+03
157 5.12861e+01 3.29391e+08 9.09345e+02
158 5.49541e+01 3.07509e+08 3.83035e+02
159 5.88844e+01 2.92556e+08 2.47863e+02
160 6.30957e+01 2.76668e+08 1.94185e+02
161 6.76083e+01 2.64167e+08 1.57748e+02
162 7.24436e+01 2.53796e+08 1.26939e+02
163 7.76247e+01 2.43408e+08 1.03757e+02
164 8.31764e+01 2.34673e+08 8.58552e+01
165 8.91251e+01 2.26654e+08 7.08148e+01
166 9.54993e+01 2.18833e+08 6.04531e+01
167 1.02329e+02 2.11696e+08 5.44465e+01
168 1.09648e+02 2.02575e+08 5.22520e+01
169 1.17490e+02 1.93976e+08 5.01769e+01
170 1.25893e+02 1.86377e+08 4.83381e+01
171 1.34896e+02 1.78407e+08 4.64044e+01
172 1.44544e+02 1.71474e+08 4.47174e+01
173 1.54882e+02 1.64148e+08 4.29303e+01
174 1.65959e+02 1.57129e+08 4.12127e+01
175 1.77828e+02 1.51023e+08 3.97148e+01
176 1.90546e+02 1.44571e+08 3.81274e+01
177 2.04174e+02 1.38392e+08 3.68402e+01
178 2.18776e+02 1.33028e+08 3.62984e+01
179 2.34423e+02 1.27357e+08 3.57106e+01
180 2.51189e+02 1.21922e+08 3.51317e+01
181 2.69153e+02 1.17198e+08 3.46153e+01
182 2.88403e+02 1.12202e+08 3.40547e+01
183 3.09030e+02 1.07413e+08 3.35025e+01
184 3.31131e+02 1.03252e+08 3.30101e+01
185 3.54813e+02 9.86550e+07 3.24515e+01
186 3.80189e+02 9.50020e+07 3.19959e+01
187 4.07380e+02 9.10118e+07 3.14855e+01
188 4.36516e+02 8.72235e+07 3.09878e+01
189 4.67735e+02 8.39429e+07 3.05458e+01
190 5.01187e+02 8.15663e+07 3.02188e+01
191 5.37032e+02 7.93470e+07 2.96662e+01
192 5.75440e+02 7.82081e+07 2.90863e+01
193 6.16595e+02 7.70726e+07 2.85112e+01
194 6.60693e+02 7.59392e+07 2.79403e+01
195 7.07946e+02 7.58183e+07 2.78796e+01
196 7.58578e+02 7.48161e+07 2.73776e+01
197 8.12831e+02 7.38270e+07 2.68846e+01
198 8.70964e+02 7.28511e+07 2.64006e+01
199 9.33254e+02 7.18881e+07 2.59252e+01
200 1.00000e+03 7.09377e+07 2.54584e+01
201 1.07152e+03 7.00000e+07 2.50000e+01
202 1.14815e+03 6.96770e+07 2.48332e+01
203 1.23027e+03 6.93556e+07 2.46675e+01
204 1.31826e+03 6.90356e+07 2.45029e+01
205 1.41254e+03 6.87170e+07 2.43395e+01
206 1.51356e+03 6.84000e+07 2.41771e+01
207 1.62181e+03 6.80844e+07 2.40158e+01
208 1.73780e+03 6.77703e+07 2.38555e+01
209 1.86209e+03 6.74576e+07 2.36964e+01
210 1.99526e+03 6.71463e+07 2.35383e+01
211 2.13796e+03 6.68365e+07 2.33812e+01
212 2.29087e+03 6.65282e+07 2.32252e+01
213 2.45471e+03 6.62212e+07 2.30703e+01
214 2.63027e+03 6.59157e+07 2.29163e+01
215 2.81838e+03 6.56116e+07 2.27634e+01
216 3.01995e+03 6.53088e+07 2.26116e+01
217 3.23594e+03 6.50075e+07 2.24607e+01
218 3.46737e+03 6.47076e+07 2.23108e+01
219 3.71535e+03 6.44090e+07 2.21620e+01
220 3.98107e+03 6.41119e+07 2.20141e+01
221 4.26580e+03 6.38161e+07 2.18672e+01
222 4.57088e+03 6.35216e+07 2.17213e+01
223 4.89779e+03 6.32285e+07 2.15764e+01
224 5.24807e+03 6.29368e+07 2.14325e+01
225 5.62341e+03 6.26464e+07 2.12895e+01
226 6.02560e+03 6.23574e+07 2.11474e+01
227 6.45654e+03 6.20697e+07 2.10063e+01
228 6.91831e+03 6.17833e+07 2.08662e+01
229 7.41310e+03 6.14982e+07 2.07270e+01
230 7.94328e+03 6.12145e+07 2.05887e+01
231 8.51138e+03 6.09321e+07 2.04513e+01
232 9.12011e+03 6.06509e+07 2.03149e+01
233 9.77237e+03 6.03711e+07 2.01793e+01
234 1.04713e+04 6.00926e+07 2.00447e+01
235 1.12202e+04 5.97816e+07 1.98853e+01
236 1.20226e+04 5.94555e+07 1.97144e+01
237 1.28825e+04 5.91312e+07 1.95450e+01
238 1.38038e+04 5.88087e+07 1.93770e+01
239 1.47911e+04 5.84879e+07 1.92105e+01
240 1.58489e+04 5.81688e+07 1.90454e+01
241 1.69824e+04 5.78516e+07 1.88818e+01
242 1.81970e+04 5.75360e+07 1.87195e+01
243 1.94984e+04 5.72221e+07 1.85586e+01
244 2.08930e+04 5.69100e+07 1.83992e+01
245 2.23872e+04 5.65996e+07 1.82410e+01
246 2.39883e+04 5.62909e+07 1.80843e+01
247 2.57040e+04 5.59838e+07 1.79289e+01
248 2.75423e+04 5.56784e+07 1.77748e+01
249 2.95121e+04 5.53747e+07 1.76221e+01
250 3.16228e+04 5.50727e+07 1.74706e+01
251 3.38844e+04 5.47723e+07 1.73205e+01
252 3.63078e+04 5.44735e+07 1.71717e+01
253 3.89045e+04 5.41764e+07 1.70241e+01
254 4.16869e+04 5.38808e+07 1.68778e+01
255 4.46684e+04 5.35869e+07 1.67328e+01
256 4.78630e+04 5.32946e+07 1.65890e+01
257 5.12861e+04 5.30039e+07 1.64464e+01
258 5.49541e+04 5.27148e+07 1.63051e+01
259 5.88844e+04 5.24273e+07 1.61650e+01
260 6.30957e+04 5.21413e+07 1.60261e+01
261 6.76083e+04 5.18569e+07 1.58884e+01
262 7.24436e+04 5.15740e+07 1.57518e+01
263 7.76247e+04 5.12927e+07 1.56165e+01
264 8.31764e+04 5.10129e+07 1.54823e+01
265 8.91251e+04 5.07346e+07 1.53492e+01
266 9.54993e+04 5.04579e+07 1.52173e+01
267 1.02329e+05 5.01827e+07 1.50866e+01
268 1.09648e+05 4.98886e+07 1.49666e+01
269 1.17490e+05 4.95557e+07 1.48667e+01
270 1.25893e+05 4.92251e+07 1.47675e+01
271 1.34896e+05 4.88966e+07 1.46690e+01
272 1.44544e+05 4.85704e+07 1.45711e+01
273 1.54882e+05 4.82463e+07 1.44739e+01
274 1.65959e+05 4.79244e+07 1.43773e+01
275 1.77828e+05 4.76047e+07 1.42814e+01
276 1.90546e+05 4.72871e+07 1.41861e+01
277 2.04174e+05 4.69716e+07 1.40915e+01
278 2.18776e+05 4.66582e+07 1.39975e+01
279 2.34423e+05 4.63469e+07 1.39041e+01
280 2.51189e+05 4.60377e+07 1.38113e+01
281 2.69153e+05 4.57305e+07 1.37192e+01
282 2.88403e+05 4.54254e+07 1.36276e+01
283 3.09030e+05 4.51223e+07 1.35367e+01
284 3.31131e+05 4.48213e+07 1.34464e+01
285 3.54813e+05 4.45222e+07 1.33567e+01
286 3.80189e+05 4.42252e+07 1.32676e+01
287 4.07380e+05 4.39301e+07 1.31790e+01
288 4.36516e+05 4.36370e+07 1.30911e+01
289 4.67735e+05 4.33459e+07 1.30038e+01
290 5.01187e+05 4.30567e+07 1.29170e+01
291 5.37032e+05 4.27694e+07 1.28308e+01
292 5.75440e+05 4.24840e+07 1.27452e+01
293 6.16595e+05 4.22006e+07 1.26602e+01
294 6.60693e+05 4.19190e+07 1.25757e+01
295 7.07946e+05 4.16393e+07 1.24918e+01
296 7.58578e+05 4.13615e+07 1.24085e+01
297 8.12831e+05 4.10856e+07 1.23257e+01
298 8.70964e+05 4.08114e+07 1.22434e+01
299 9.33254e+05 4.05391e+07 1.21617e+01
300 1.00000e+06 4.02687e+07 1.20806e+01
301 1.07152e+06 4.00000e+07 1.20000e+01
302 1.14815e+06 3.96563e+07 1.19345e+01
303 1.23027e+06 3.93155e+07 1.18694e+01
304 1.31826e+06 3.89776e+07 1.18047e+01
305 1.41254e+06 3.86427e+07 1.17403e+01
306 1.51356e+06 3.83106e+07 1.16763e+01
307 1.62181e+06 3.79814e+07 1.16126e+01
308 1.73780e+06 3.76550e+07 1.15492e+01
309 1.86209e+06 3.73314e+07 1.14862e+01
310 1.99526e+06 3.70106e+07 1.14236e+01
311 2.13796e+06 3.66926e+07 1.13613e+01
312 2.29087e+06 3.63773e+07 1.12993e+01
313 2.45471e+06 3.60647e+07 1.12377e+01
314 2.63027e+06 3.57548e+07 1.11764e+01
315 2.81838e+06 3.54475e+07 1.11154e+01
316 3.01995e+06 3.51429e+07 1.10548e+01
317 3.23594e+06 3.48409e+07 1.09945e+01
318 3.46737e+06 3.45415e+07 1.09345e+01
319 3.71535e+06 3.42447e+07 1.08749e+01
320 3.98107e+06 3.39504e+07 1.08155e+01
321 4.26580e+06 3.36587e+07 1.07565e+01
322 4.57088e+06 3.33694e+07 1.06979e+01
323 4.89779e+06 3.30827e+07 1.06395e+01
324 5.24807e+06 3.27984e+07 1.05815e+01
325 5.62341e+06 3.25165e+07 1.05238e+01
326 6.02560e+06 3.22371e+07 1.04664e+01
327 6.45654e+06 3.19601e+07 1.04093e+01
328 6.91831e+06 3.16854e+07 1.03525e+01
329 7.41310e+06 3.14131e+07 1.02960e+01
330 7.94328e+06 3.11432e+07 1.02398e+01
331 8.51138e+06 3.08756e+07 1.01840e+01
332 9.12011e+06 3.06103e+07 1.01284e+01
333 9.77237e+06 3.03472e+07 1.00732e+01
334 1.04713e+07 3.00864e+07 1.00182e+01
335 1.12202e+07 2.97577e+07 9.95547e+00
336 1.20226e+07 2.93979e+07 9.88905e+00
337 1.28825e+07 2.90425e+07 9.82307e+00
338 1.38038e+07 2.86914e+07 9.75753e+00
339 1.47911e+07 2.83445e+07 9.69243e+00
340 1.58489e+07 2.80018e+07 9.62776e+00
341 1.69824e+07 2.76632e+07 9.56352e+00
342 1.81970e+07 2.73288e+07 9.49972e+00
343 1.94984e+07 2.69984e+07 9.43634e+00
344 2.08930e+07 2.66720e+07 9.37338e+00
345 2.23872e+07 2.63495e+07 9.31084e+00
346 2.39883e+07 2.60309e+07 9.24872e+00
347 2.57040e+07 2.57162e+07 9.18701e+00
348 2.75423e+07 2.54053e+07 9.12571e+00
349 2.95121e+07 2.50981e+07 9.06483e+00
350 3.16228e+07 2.47947e+07 9.00435e+00
351 3.38844e+07 2.44949e+07 8.94427e+00
352 3.63078e+07 2.41987e+07 8.88460e+00
353 3.89045e+07 2.39062e+07 8.82532e+00
354 4.16869e+07 2.36171e+07 8.76644e+00
355 4.46684e+07 2.33316e+07 8.70795e+00
356 4.78630e+07 2.30495e+07 8.64985e+00
357 5.12861e+07 2.27708e+07 8.59214e+00
358 5.49541e+07 2.24955e+07 8.53481e+00
359 5.88844e+07 2.22236e+07 8.47787e+00
360 6.30957e+07 2.19549e+07 8.42130e+00
361 6.76083e+07 2.16894e+07 8.36512e+00
362 7.24436e+07 2.14272e+07 8.30930e+00
363 7.76247e+07 2.11681e+07 8.25387e+00
364 8.31764e+07 2.09122e+07 8.19880e+00
365 8.91251e+07 2.06594e+07 8.14409e+00
366 9.54993e+07 2.04096e+07 8.08976e+00
367 1.02329e+08 2.01628e+07 8.03578e+00
368 1.09648e+08 1.99308e+07 7.98850e+00
369 1.17490e+08 1.97247e+07 7.95410e+00
370 1.25893e+08 1.95206e+07 7.91985e+00
371 1.34896e+08 1.93187e+07 7.88575e+00
372 1.44544e+08 1.91189e+07 7.85180e+00
373 1.54882e+08 1.89212e+07 7.81799e+00
374 1.65959e+08 1.87254e+07 7.78432e+00
375 1.77828e+08 1.85318e+07 7.75080e+00
376 1.90546e+08 1.83401e+07 7.71743e+00
377 2.04174e+08 1.81504e+07 7.68420e+00
378 2.18776e+08 1.79626e+07 7.65111e+00
379 2.34423e+08 1.77769e+07 7.61817e+00
380 2.51189e+08 1.75930e+07 7.58536e+00
381 2.69153e+08 1.74110e+07 7.55270e+00
382 2.88403e+08 1.72309e+07 7.52018e+00
383 3.09030e+08 1.70527e+07 7.48780e+00
384 3.31131e+08 1.68763e+07 7.45556e+00
385 3.54813e+08 1.67018e+07 7.42345e+00
386 3.80189e+08 1.65290e+07 7.39149e+00
387 4.07380e+08 1.63580e+07 7.35966e+00
388 4.36516e+08 1.61888e+07 7.32797e+00
389 4.67735e+08 1.60214e+07 7.29642e+00
390 5.01187e+08 1.58557e+07 7.26500e+00
391 5.37032e+08 1.56917e+07 7.23372e+00
392 5.75440e+08 1.55294e+07 7.20257e+00
393 6.16595e+08 1.53688e+07 7.17155e+00
394 6.60693e+08 1.52098e+07 7.14067e+00
395 7.07946e+08 1.50525e+07 7.10993e+00
396 7.58578e+08 1.48968e+07 7.07931e+00
397 8.12831e+08 1.47427e+07 7.04883e+00
398 8.70964e+08 1.45902e+07 7.01848e+00
399 9.33254e+08 1.44393e+07 6.98826e+00
400 1.00000e+09 1.42899e+07 6.95816e+00
