Index   time[s]   T[K]   rho[g/cm^3]
0 1.000000000000E-5 0.1000 9000.0000
1 1.412537544623E-5 0.1000 8985.8878
2 1.995262314969E-5 0.1001 8970.4924
3 2.818382931264E-5 0.1001 8955.1234
4 3.981071705535E-5 0.1001 8939.7808
5 5.623413251904E-5 0.1001 8924.4644
6 7.943282347243E-5 0.1002 8909.1742
7 1.122018454302E-4 0.1002 8893.9103
8 1.584893192461E-4 0.1002 8878.6725
9 2.238721138568E-4 0.1003 8863.4608
10 3.162277660168E-4 0.1003 8848.2752
11 4.466835921510E-4 0.1003 8833.1156
12 6.309573444802E-4 0.1004 8817.9820
13 8.912509381337E-4 0.1004 8802.8743
14 0.001258925412 0.1004 8787.7925
15 0.001778279410 0.1004 8772.7365
16 0.002511886432 0.1005 8757.7063
17 0.003548133892 0.1005 8742.7019
18 0.005011872336 0.1005 8727.7232
19 0.007079457844 0.1006 8712.7701
20 0.010000000000 0.1006 8697.8427
21 0.014125375446 0.1006 8682.9408
22 0.019952623150 0.1007 8668.0645
23 0.028183829313 0.1007 8653.2136
24 0.039810717055 0.1007 8638.3882
25 0.056234132519 0.1007 8623.5882
26 0.079432823472 0.1008 8608.8136
27 0.112201845430 0.1008 8594.0642
28 0.158489319246 0.1008 8579.3402
29 0.223872113857 0.1009 8564.6413
30 0.316227766017 0.1009 8549.9677
31 0.446683592151 0.1009 8535.3192
32 0.630957344480 0.1010 8520.6957
33 0.891250938134 0.1010 8506.0974
34 1.258925411794 0.1014 8465.5035
35 1.778279410039 0.1021 8406.5392
36 2.511886431510 0.1027 8347.9857
37 3.548133892336 0.1034 8289.8399
38 5.011872336273 0.1041 8232.0992
39 7.079457843841 0.1048 8174.7607
40 10.000000000000 0.1055 8117.8215
41 14.125375446228 0.1062 8061.2789
42 19.952623149689 0.1069 8005.1302
43 28.183829312645 0.1093 7844.8170
44 39.810717055350 0.1184 7545.2280
45 56.234132519035 0.3029 331.6293
46 79.432823472428 0.2408 98.5785
47 112.201845430196 0.1999 51.6062
48 158.489319246111 0.1616 42.3088
49 223.872113856834 0.1312 36.1099
50 316.227766016838 0.1061 33.3441
51 446.683592150963 0.0862 30.8574
52 630.957344480192 0.0767 28.3067
53 891.250938133744 0.0719 25.9134
54 1258.925411794165 0.0691 24.5326
55 1778.279410038919 0.0675 23.7209
56 2511.886431509575 0.0661 23.0312
57 3548.133892335746 0.0646 22.2330
58 5011.872336272710 0.0630 21.4602
59 7079.457843841359 0.0615 20.7396
60 9999.999999999970 0.0601 20.0569
61 14125.375446227497 0.0585 19.2256
62 19952.623149688750 0.0569 18.4136
63 28183.829312644490 0.0554 17.6359
64 39810.717055349690 0.0539 16.8911
65 56234.132519034910 0.0525 16.1777
66 79432.823472428210 0.0510 15.4944
67 112201.845430196520 0.0496 14.8758
68 158489.319246111760 0.0480 14.3861
69 223872.113856834680 0.0464 13.9125
70 316227.766016839250 0.0448 13.4546
71 446683.592150965300 0.0434 13.0117
72 630957.344480196800 0.0419 12.5834
73 891250.938133751400 0.0406 12.1691
74 1258925.411794176600 0.0390 11.8106
75 1778279.410038937300 0.0374 11.4919
76 2511886.431509603000 0.0358 11.1819
77 3548133.892335789300 0.0343 10.8803
78 5011872.336272776000 0.0328 10.5867
79 7079457.843841460500 0.0314 10.3011
80 1.000000000000E7 0.0301 10.0232
81 1.412537544623E7 0.0284 9.6983
82 1.995262314969E7 0.0267 9.3791
83 2.818382931264E7 0.0251 9.0703
84 3.981071705535E7 0.0236 8.7718
85 5.623413251904E7 0.0222 8.4830
86 7.943282347243E7 0.0209 8.2038
87 1.122018454302E8 0.0197 7.9572
88 1.584893192461E8 0.0187 7.7874
89 2.238721138568E8 0.0178 7.6212
90 3.162277660168E8 0.0169 7.4585
91 4.466835921510E8 0.0160 7.2993
92 6.309573444802E8 0.0152 7.1435
93 8.912509381338E8 0.0145 6.9910
94 1.258925411794E9 0.0137 6.8418
95 1.778279410039E9 0.0130 6.6957
96 2.511886431510E9 0.0124 6.5528
97 3.548133892336E9 0.0117 6.4129
98 5.011872336273E9 0.0111 6.2761
99 7.079457843842E9 0.0106 6.1421
100 1.000000000000E10 0.0100 6.0110
