Index   time[s]   T[K]   rho[g/cm^3]
103
0   6.0         3e7    1.8e5
0   6.91831e+00 4.02024e+07 1.86677e+05
1   6.94384e+00 5.77116e+07 1.94966e+05
2   6.96947e+00 6.76811e+07 1.99367e+05
3   6.99520e+00 7.96059e+07 2.04376e+05
4   7.02102e+00 9.38596e+07 2.09994e+05
5   7.04693e+00 1.17584e+08 2.19341e+05
6   7.07294e+00 1.41325e+08 2.27882e+05
7   7.09905e+00 1.77556e+08 2.41186e+05
8   7.12525e+00 2.20981e+08 2.56531e+05
9   7.15155e+00 2.66861e+08 2.72409e+05
10  7.17794e+00 3.53976e+08 3.02348e+05
11  7.20444e+00 6.09512e+08 3.77324e+05
12  7.23103e+00 8.84791e+08 4.29612e+05
13  7.25772e+00 1.27999e+09 4.98293e+05
14  7.28450e+00 1.66966e+09 5.85581e+05
15  7.31139e+00 2.43794e+09 6.75149e+05
16  7.33838e+00 2.58291e+09 7.08599e+05
17  7.36546e+00 2.54965e+09 6.55190e+05
18  7.39265e+00 2.44622e+09 5.57935e+05
19  7.41993e+00 2.27297e+09 4.27448e+05
20  7.44732e+00 2.12471e+09 3.36737e+05
21  7.47481e+00 2.01134e+09 2.77870e+05
22  7.50240e+00 1.94921e+09 2.48903e+05
23  7.53009e+00 1.84541e+09 2.05831e+05
24  7.55788e+00 1.74298e+09 1.69067e+05
25  7.58578e+00 1.72633e+09 1.63647e+05
26  7.61377e+00 1.64596e+09 1.39034e+05
27  7.64188e+00 1.57186e+09 1.18922e+05
28  7.67008e+00 1.49882e+09 1.01379e+05
29  7.69839e+00 1.43283e+09 8.72839e+04
30  7.72681e+00 1.37711e+09 7.65547e+04
31  7.75532e+00 1.32431e+09 6.74267e+04
32  7.78395e+00 1.27954e+09 6.03859e+04
33  7.81268e+00 1.22944e+09 5.32164e+04
34  7.84152e+00 1.19593e+09 4.87825e+04
35  7.87046e+00 1.15854e+09 4.41878e+04
36  7.89951e+00 1.12199e+09 4.00246e+04
37  7.92866e+00 1.09058e+09 3.66803e+04
38  7.95793e+00 1.06533e+09 3.41508e+04
39  7.98730e+00 1.03860e+09 3.16103e+04
40  8.01678e+00 1.01119e+09 2.91557e+04
41  8.04637e+00 9.87916e+08 2.71790e+04
42  8.07607e+00 9.67256e+08 2.55062e+04
43  8.10588e+00 9.45461e+08 2.38202e+04
44  8.13580e+00 9.23061e+08 2.21693e+04
45  8.16582e+00 9.02505e+08 2.07260e+04
46  8.19596e+00 8.83215e+08 1.94315e+04
47  8.22621e+00 8.64940e+08 1.82567e+04
48  8.25658e+00 8.47240e+08 1.71650e+04
49  8.28705e+00 8.30002e+08 1.61428e+04
50  8.31764e+00 8.18767e+08 1.54993e+04
51  8.34834e+00 7.97650e+08 1.43430e+04
52  8.37915e+00 7.85588e+08 1.37024e+04
53  8.41008e+00 7.68097e+08 1.28168e+04
54  8.44112e+00 7.51594e+08 1.20118e+04
55  8.47227e+00 7.40439e+08 1.14912e+04
56  8.50354e+00 7.26069e+08 1.08445e+04
57  8.53493e+00 7.15232e+08 1.03731e+04
58  8.56643e+00 7.01002e+08 9.77924e+03
59  8.59805e+00 6.92410e+08 9.43019e+03
60  8.62979e+00 6.78604e+08 8.88659e+03
61  8.66164e+00 6.71399e+08 8.61084e+03
62  8.69361e+00 6.58527e+08 8.13798e+03
63  8.72569e+00 6.52377e+08 7.91685e+03
64  8.75790e+00 6.40688e+08 7.51164e+03
65  8.79023e+00 6.32230e+08 7.22655e+03
66  8.82267e+00 6.24115e+08 6.96026e+03
67  8.85523e+00 6.16258e+08 6.70877e+03
68  8.88792e+00 6.08605e+08 6.46985e+03
69  8.92072e+00 6.01137e+08 6.24224e+03
70  8.95365e+00 5.93792e+08 6.02326e+03
71  8.98669e+00 5.86622e+08 5.81515e+03
72  9.01986e+00 5.79509e+08 5.61263e+03
73  9.05316e+00 5.72498e+08 5.41758e+03
74  9.08657e+00 5.65569e+08 5.22909e+03
75  9.12011e+00 5.58645e+08 5.04409e+03
76  9.15377e+00 5.51849e+08 4.86807e+03
77  9.18756e+00 5.45065e+08 4.69467e+03
78  9.22147e+00 5.40513e+08 4.57977e+03
79  9.25550e+00 5.31778e+08 4.36425e+03
80  9.28966e+00 5.25845e+08 4.22260e+03
81  9.32395e+00 5.18036e+08 4.04214e+03
82  9.35837e+00 5.15083e+08 3.97360e+03
83  9.39291e+00 5.06872e+08 3.79015e+03
84  9.42758e+00 4.98938e+08 3.61971e+03
85  9.46237e+00 4.93262e+08 3.50057e+03
86  9.49730e+00 4.86016e+08 3.35287e+03
87  9.53235e+00 4.83610e+08 3.30427e+03
88  9.56753e+00 4.76263e+08 3.16098e+03
89  9.60285e+00 4.69075e+08 3.02466e+03
90  9.63829e+00 4.62844e+08 2.91044e+03
91  9.67386e+00 4.56880e+08 2.80318e+03
92  9.70957e+00 4.54000e+08 2.75202e+03
93  9.74541e+00 4.48900e+08 2.66387e+03
94  9.78138e+00 4.42606e+08 2.55825e+03
95  9.81748e+00 4.35871e+08 2.44890e+03
96  9.85372e+00 4.30926e+08 2.37019e+03
97  9.89008e+00 4.27244e+08 2.31252e+03
98  9.92659e+00 4.23349e+08 2.25254e+03
99  9.96323e+00 4.19518e+08 2.19474e+03
100 1.00000e+01 4.12378e+08 2.09042e+03
101 50.    4e8    2e3
