Index   time[s]   T[K]   rho[g/cm^3]
53
0   6.0         3e7    1.8e5
0   6.91831e+00 4.02024e+07 1.86677e+05
1   6.96947e+00 5.77116e+07 1.94966e+05
2   7.02102e+00 7.96059e+07 2.04376e+05
3   7.07294e+00 1.17584e+08 2.19341e+05
4   7.12525e+00 1.77556e+08 2.41186e+05
5   7.17794e+00 2.66861e+08 2.72409e+05
6   7.23103e+00 8.91767e+08 4.30432e+05
7   7.28450e+00 1.66948e+09 5.85584e+05
8   7.33838e+00 2.58285e+09 7.08650e+05
9   7.39265e+00 2.42786e+09 5.42578e+05
10  7.44732e+00 2.14684e+09 3.49303e+05
11  7.50240e+00 1.92510e+09 2.38390e+05
12  7.55788e+00 1.78457e+09 1.83382e+05
13  7.61377e+00 1.57947e+09 1.20893e+05
14  7.67008e+00 1.48552e+09 9.84078e+04
15  7.72681e+00 1.35629e+09 7.28439e+04
16  7.78395e+00 1.24549e+09 5.54316e+04
17  7.84152e+00 1.22944e+09 5.32164e+04
18  7.89951e+00 1.15854e+09 4.41878e+04
19  7.95793e+00 1.09058e+09 3.66803e+04
20  8.01678e+00 1.03860e+09 3.16103e+04
21  8.07607e+00 9.87916e+08 2.71790e+04
22  8.13580e+00 9.45461e+08 2.38202e+04
23  8.19596e+00 9.02505e+08 2.07260e+04
24  8.25658e+00 8.64940e+08 1.82567e+04
25  8.31764e+00 8.30002e+08 1.61428e+04
26  8.37915e+00 7.97650e+08 1.43430e+04
27  8.44112e+00 7.68097e+08 1.28168e+04
28  8.50354e+00 7.40439e+08 1.14912e+04
29  8.56643e+00 7.15232e+08 1.03731e+04
30  8.62979e+00 6.92410e+08 9.43019e+03
31  8.69361e+00 6.71399e+08 8.61084e+03
32  8.75790e+00 6.52377e+08 7.91685e+03
33  8.82267e+00 6.32230e+08 7.22655e+03
34  8.88792e+00 6.16258e+08 6.70877e+03
35  8.95365e+00 6.01137e+08 6.24224e+03
36  9.01986e+00 5.86622e+08 5.81515e+03
37  9.08657e+00 5.72498e+08 5.41758e+03
38  9.15377e+00 5.58645e+08 5.04409e+03
39  9.22147e+00 5.45065e+08 4.69467e+03
40  9.28966e+00 5.31778e+08 4.36425e+03
41  9.35837e+00 5.18036e+08 4.04214e+03
42  9.42758e+00 5.06872e+08 3.79015e+03
43  9.49730e+00 4.93262e+08 3.50057e+03
44  9.56753e+00 4.83610e+08 3.30427e+03
45  9.63829e+00 4.69075e+08 3.02466e+03
46  9.70957e+00 4.56880e+08 2.80318e+03
47  9.78138e+00 4.48900e+08 2.66387e+03
48  9.85372e+00 4.35871e+08 2.44890e+03
49  9.92659e+00 4.27244e+08 2.31252e+03
50  1.00000e+01 4.19518e+08 2.19474e+03
50  50.    4e8    2e3
